! Station ID = ERIDANLABPC001
! Timestamp = 3/15/2023 12:38:08 PM
! OS = Microsoft Windows NT 6.2.9200.0
! NetworkAnalyzer Address = GPIB0::16::INSTR
! NetworkAnalyzer IDString = HEWLETT PACKARD,8722D,0,6.14
! NetworkAnalyzer FrequencyStart = 1000000000
! NetworkAnalyzer FrequencyStop = 24000000000
! NetworkAnalyzer Points = 1601
! NetworkAnalyzer Power = -10
# MHz S DB R 50
! freq          magS11          angS11          magS21          angS21          magS12          angS12          magS22          angS22          
1.0000000E+003  -1.0800171E+000 1.6622656E+002  -2.0612305E+001 1.3057813E+002  -2.1082031E+001 1.2778906E+002  -4.3692017E-001 -1.6130469E+002 
1.0143750E+003  -1.1042480E+000 1.6328906E+002  -2.0375000E+001 1.2827344E+002  -2.0851563E+001 1.2577344E+002  -4.5066833E-001 -1.6266406E+002 
1.0287500E+003  -1.1322632E+000 1.6000781E+002  -2.0119141E+001 1.2566016E+002  -2.0577148E+001 1.2351172E+002  -4.6746826E-001 -1.6418750E+002 
1.0431250E+003  -1.1657715E+000 1.5638281E+002  -1.9840820E+001 1.2281641E+002  -2.0257813E+001 1.2092969E+002  -4.8823547E-001 -1.6589844E+002 
1.0575000E+003  -1.2048950E+000 1.5238281E+002  -1.9525391E+001 1.1979297E+002  -1.9897461E+001 1.1797656E+002  -5.1336670E-001 -1.6778906E+002 
1.0718750E+003  -1.2507935E+000 1.4802344E+002  -1.9152344E+001 1.1653516E+002  -1.9505859E+001 1.1466016E+002  -5.4479980E-001 -1.6985156E+002 
1.0862500E+003  -1.3049316E+000 1.4327344E+002  -1.8713867E+001 1.1290625E+002  -1.9080078E+001 1.1105859E+002  -5.8340454E-001 -1.7211719E+002 
1.1006250E+003  -1.3700562E+000 1.3812500E+002  -1.8215820E+001 1.0880078E+002  -1.8602539E+001 1.0722266E+002  -6.3265991E-001 -1.7457813E+002 
1.1150000E+003  -1.4506836E+000 1.3255469E+002  -1.7667969E+001 1.0416016E+002  -1.8042969E+001 1.0303906E+002  -6.9665527E-001 -1.7725000E+002 
1.1293750E+003  -1.5524902E+000 1.2653516E+002  -1.7076172E+001 9.8984375E+001  -1.7397461E+001 9.8257813E+001  -7.8298950E-001 1.7986719E+002  
1.1437500E+003  -1.6842651E+000 1.2037500E+002  -1.6458008E+001 9.3593750E+001  -1.6697266E+001 9.2847656E+001  -8.9810181E-001 1.7691406E+002  
1.1581250E+003  -1.8618774E+000 1.1406641E+002  -1.5792480E+001 8.7921875E+001  -1.5977539E+001 8.6785156E+001  -1.0568237E+000 1.7393750E+002  
1.1725000E+003  -2.1110840E+000 1.0767969E+002  -1.5069824E+001 8.1746094E+001  -1.5253906E+001 8.0121094E+001  -1.2762451E+000 1.7107813E+002  
1.1868750E+003  -2.4602051E+000 1.0148047E+002  -1.4305176E+001 7.4761719E+001  -1.4531738E+001 7.2859375E+001  -1.5594482E+000 1.6860938E+002  
1.2012500E+003  -2.8979492E+000 9.5960938E+001  -1.3547852E+001 6.6828125E+001  -1.3823730E+001 6.4910156E+001  -1.8592529E+000 1.6682031E+002  
1.2156250E+003  -3.3323975E+000 9.1382813E+001  -1.2850586E+001 5.7945313E+001  -1.3149414E+001 5.6244141E+001  -2.1112061E+000 1.6561719E+002  
1.2300000E+003  -3.6899414E+000 8.7398438E+001  -1.2249023E+001 4.8287109E+001  -1.2531738E+001 4.6884766E+001  -2.2935791E+000 1.6467188E+002  
1.2443750E+003  -3.9718018E+000 8.3597656E+001  -1.1770508E+001 3.8105469E+001  -1.1993164E+001 3.6853516E+001  -2.4184570E+000 1.6376563E+002  
1.2587500E+003  -4.1987305E+000 7.9808594E+001  -1.1412109E+001 2.7663086E+001  -1.1564941E+001 2.6225586E+001  -2.5053711E+000 1.6281250E+002  
1.2731250E+003  -4.3862305E+000 7.5976563E+001  -1.1157715E+001 1.7153320E+001  -1.1271973E+001 1.5229492E+001  -2.5629883E+000 1.6178906E+002  
1.2875000E+003  -4.5454102E+000 7.2089844E+001  -1.0980469E+001 6.6286621E+000  -1.1114258E+001 4.1843262E+000  -2.5999756E+000 1.6072656E+002  
1.3018750E+003  -4.6838379E+000 6.8156250E+001  -1.0869629E+001 -4.0581055E+000 -1.1057617E+001 -6.7197266E+000 -2.6210938E+000 1.5963281E+002  
1.3162500E+003  -4.8054199E+000 6.4199219E+001  -1.0837891E+001 -1.5025391E+001 -1.1063965E+001 -1.7534180E+001 -2.6278076E+000 1.5851563E+002  
1.3306250E+003  -4.9111328E+000 6.0226563E+001  -1.0926270E+001 -2.6243164E+001 -1.1129395E+001 -2.8500000E+001 -2.6209717E+000 1.5738281E+002  
1.3450000E+003  -5.0009766E+000 5.6257813E+001  -1.1158203E+001 -3.7484375E+001 -1.1293457E+001 -3.9751953E+001 -2.5992432E+000 1.5626563E+002  
1.3593750E+003  -5.0715332E+000 5.2316406E+001  -1.1533691E+001 -4.8460938E+001 -1.1603516E+001 -5.1115234E+001 -2.5601807E+000 1.5516406E+002  
1.3737500E+003  -5.1188965E+000 4.8435547E+001  -1.2027832E+001 -5.8925781E+001 -1.2072754E+001 -6.2175781E+001 -2.4968262E+000 1.5408594E+002  
1.3881250E+003  -5.1318359E+000 4.4619141E+001  -1.2603516E+001 -6.8789063E+001 -1.2666992E+001 -7.2632813E+001 -2.4016113E+000 1.5303906E+002  
1.4025000E+003  -5.0964355E+000 4.0890625E+001  -1.3226563E+001 -7.8183594E+001 -1.3339355E+001 -8.2421875E+001 -2.2601318E+000 1.5196875E+002  
1.4168750E+003  -4.9860840E+000 3.7171875E+001  -1.3908691E+001 -8.7304688E+001 -1.4066895E+001 -9.1664063E+001 -2.0562744E+000 1.5077344E+002  
1.4312500E+003  -4.7736816E+000 3.3210938E+001  -1.4681641E+001 -9.6074219E+001 -1.4854492E+001 -1.0045703E+002 -1.7877808E+000 1.4914063E+002  
1.4456250E+003  -4.4697266E+000 2.8507813E+001  -1.5551270E+001 -1.0422656E+002 -1.5711914E+001 -1.0868750E+002 -1.4988403E+000 1.4680469E+002  
1.4600000E+003  -4.1652832E+000 2.2804688E+001  -1.6491211E+001 -1.1151172E+002 -1.6628906E+001 -1.1622266E+002 -1.2560425E+000 1.4385156E+002  
1.4743750E+003  -3.9348145E+000 1.6458008E+001  -1.7455078E+001 -1.1779688E+002 -1.7580078E+001 -1.2293750E+002 -1.0803833E+000 1.4062500E+002  
1.4887500E+003  -3.7761230E+000 9.8779297E+000  -1.8382813E+001 -1.2315234E+002 -1.8524414E+001 -1.2878906E+002 -9.5983887E-001 1.3735156E+002  
1.5031250E+003  -3.6689453E+000 3.2423096E+000  -1.9237305E+001 -1.2791406E+002 -1.9416016E+001 -1.3393750E+002 -8.7637329E-001 1.3409375E+002  
1.5175000E+003  -3.5969238E+000 -3.3962402E+000 -2.0026367E+001 -1.3254688E+002 -2.0239258E+001 -1.3879688E+002 -8.1900024E-001 1.3089063E+002  
1.5318750E+003  -3.5461426E+000 -1.0012695E+001 -2.0801758E+001 -1.3729688E+002 -2.1027344E+001 -1.4368750E+002 -7.7960205E-001 1.2773438E+002  
1.5462500E+003  -3.5098877E+000 -1.6609375E+001 -2.1621094E+001 -1.4200000E+002 -2.1833008E+001 -1.4868750E+002 -7.5186157E-001 1.2460938E+002  
1.5606250E+003  -3.4827881E+000 -2.3188477E+001 -2.2505859E+001 -1.4634375E+002 -2.2700195E+001 -1.5356250E+002 -7.3251343E-001 1.2150000E+002  
1.5750000E+003  -3.4610596E+000 -2.9752930E+001 -2.3426758E+001 -1.5012500E+002 -2.3639648E+001 -1.5805469E+002 -7.2021484E-001 1.1841016E+002  
1.5893750E+003  -3.4443359E+000 -3.6300781E+001 -2.4342773E+001 -1.5338281E+002 -2.4626953E+001 -1.6196875E+002 -7.1405029E-001 1.1531641E+002  
1.6037500E+003  -3.4296875E+000 -4.2835938E+001 -2.5256836E+001 -1.5625781E+002 -2.5642578E+001 -1.6532813E+002 -7.1078491E-001 1.1222266E+002  
1.6181250E+003  -3.4156494E+000 -4.9351563E+001 -2.6220703E+001 -1.5888281E+002 -2.6704102E+001 -1.6821875E+002 -7.1060181E-001 1.0911328E+002  
1.6325000E+003  -3.4010010E+000 -5.5853516E+001 -2.7292969E+001 -1.6117188E+002 -2.7866211E+001 -1.7036719E+002 -7.1386719E-001 1.0597656E+002  
1.6468750E+003  -3.3857422E+000 -6.2347656E+001 -2.8528320E+001 -1.6211719E+002 -2.9125977E+001 -1.7107813E+002 -7.1978760E-001 1.0282422E+002  
1.6612500E+003  -3.3693848E+000 -6.8835938E+001 -2.9757813E+001 -1.6064844E+002 -3.0337891E+001 -1.6956250E+002 -7.2879028E-001 9.9621094E+001  
1.6756250E+003  -3.3508301E+000 -7.5316406E+001 -3.0793945E+001 -1.5718750E+002 -3.1361328E+001 -1.6650000E+002 -7.4047852E-001 9.6378906E+001  
1.6900000E+003  -3.3310547E+000 -8.1785156E+001 -3.1579102E+001 -1.5273438E+002 -3.2152344E+001 -1.6253906E+002 -7.5561523E-001 9.3089844E+001  
1.7043750E+003  -3.3109131E+000 -8.8253906E+001 -3.2113281E+001 -1.4775781E+002 -3.2722656E+001 -1.5809375E+002 -7.7294922E-001 8.9742188E+001  
1.7187500E+003  -3.2880859E+000 -9.4710938E+001 -3.2427734E+001 -1.4275781E+002 -3.3093750E+001 -1.5357813E+002 -7.9421997E-001 8.6335938E+001  
1.7331250E+003  -3.2635498E+000 -1.0115234E+002 -3.2576172E+001 -1.3800000E+002 -3.3312500E+001 -1.4921875E+002 -8.1808472E-001 8.2835938E+001  
1.7475000E+003  -3.2365723E+000 -1.0758984E+002 -3.2605469E+001 -1.3345313E+002 -3.3427734E+001 -1.4490625E+002 -8.4588623E-001 7.9246094E+001  
1.7618750E+003  -3.2082520E+000 -1.1401172E+002 -3.2537109E+001 -1.2889063E+002 -3.3437500E+001 -1.4038281E+002 -8.7744141E-001 7.5546875E+001  
1.7762500E+003  -3.1789551E+000 -1.2042188E+002 -3.2349609E+001 -1.2418359E+002 -3.3302734E+001 -1.3558594E+002 -9.1320801E-001 7.1718750E+001  
1.7906250E+003  -3.1485596E+000 -1.2681641E+002 -3.2007813E+001 -1.1939063E+002 -3.2986328E+001 -1.3070313E+002 -9.5654297E-001 6.7750000E+001  
1.8050000E+003  -3.1180420E+000 -1.3320313E+002 -3.1491211E+001 -1.1472266E+002 -3.2482422E+001 -1.2611328E+002 -1.0067749E+000 6.3611328E+001  
1.8193750E+003  -3.0885010E+000 -1.3956250E+002 -3.0808594E+001 -1.1039063E+002 -3.1818359E+001 -1.2199219E+002 -1.0649414E+000 5.9296875E+001  
1.8337500E+003  -3.0577393E+000 -1.4592188E+002 -2.9983398E+001 -1.0652344E+002 -3.1019531E+001 -1.1835156E+002 -1.1326294E+000 5.4771484E+001  
1.8481250E+003  -3.0279541E+000 -1.5227344E+002 -2.9020508E+001 -1.0314844E+002 -3.0086914E+001 -1.1511328E+002 -1.2122803E+000 4.9986328E+001  
1.8625000E+003  -2.9997559E+000 -1.5863281E+002 -2.7883789E+001 -1.0033203E+002 -2.8973633E+001 -1.1226953E+002 -1.3068848E+000 4.4914063E+001  
1.8768750E+003  -2.9747314E+000 -1.6498438E+002 -2.6544922E+001 -9.8210938E+001 -2.7612305E+001 -1.1036328E+002 -1.4189453E+000 3.9521484E+001  
1.8912500E+003  -2.9526367E+000 -1.7132813E+002 -2.4980469E+001 -9.7695313E+001 -2.6038086E+001 -1.1034375E+002 -1.5522461E+000 3.3738281E+001  
1.9056250E+003  -2.9338379E+000 -1.7765625E+002 -2.3355469E+001 -9.9667969E+001 -2.4448242E+001 -1.1299609E+002 -1.7092896E+000 2.7511719E+001  
1.9200000E+003  -2.9200439E+000 1.7602344E+002  -2.1837891E+001 -1.0365234E+002 -2.3000977E+001 -1.1737109E+002 -1.8940430E+000 2.0757813E+001  
1.9343750E+003  -2.9106445E+000 1.6971875E+002  -2.0467773E+001 -1.0876563E+002 -2.1712891E+001 -1.2263672E+002 -2.1093750E+000 1.3395020E+001  
1.9487500E+003  -2.9071045E+000 1.6342969E+002  -1.9242188E+001 -1.1459375E+002 -2.0527344E+001 -1.2841406E+002 -2.3549805E+000 5.3322754E+000  
1.9631250E+003  -2.9106445E+000 1.5716406E+002  -1.8128906E+001 -1.2079297E+002 -1.9408203E+001 -1.3464063E+002 -2.6290283E+000 -3.5266113E+000 
1.9775000E+003  -2.9211426E+000 1.5092188E+002  -1.7085938E+001 -1.2728516E+002 -1.8340820E+001 -1.4140625E+002 -2.9234619E+000 -1.3233398E+001 
1.9918750E+003  -2.9381104E+000 1.4470313E+002  -1.6100586E+001 -1.3416406E+002 -1.7333984E+001 -1.4883594E+002 -3.2238770E+000 -2.3811523E+001 
2.0062500E+003  -2.9617920E+000 1.3852344E+002  -1.5184082E+001 -1.4149219E+002 -1.6421875E+001 -1.5688281E+002 -3.5185547E+000 -3.5238281E+001 
2.0206250E+003  -2.9909668E+000 1.3238281E+002  -1.4354004E+001 -1.4914844E+002 -1.5628418E+001 -1.6531250E+002 -3.7933350E+000 -4.7421875E+001 
2.0350000E+003  -3.0242920E+000 1.2626953E+002  -1.3611816E+001 -1.5696094E+002 -1.4947754E+001 -1.7382813E+002 -4.0393066E+000 -6.0250000E+001 
2.0493750E+003  -3.0617676E+000 1.2017578E+002  -1.2937500E+001 -1.6482031E+002 -1.4344238E+001 1.7775781E+002  -4.2553711E+000 -7.3601563E+001 
2.0637500E+003  -3.1022949E+000 1.1412500E+002  -1.2308594E+001 -1.7276563E+002 -1.3774902E+001 1.6935938E+002  -4.4377441E+000 -8.7355469E+001 
2.0781250E+003  -3.1445313E+000 1.0810156E+002  -1.1724609E+001 1.7908594E+002  -1.3232422E+001 1.6075000E+002  -4.5864258E+000 -1.0139063E+002 
2.0925000E+003  -3.1895752E+000 1.0210547E+002  -1.1203613E+001 1.7071094E+002  -1.2744629E+001 1.5177344E+002  -4.7026367E+000 -1.1559766E+002 
2.1068750E+003  -3.2364502E+000 9.6128906E+001  -1.0767090E+001 1.6218750E+002  -1.2357422E+001 1.4248438E+002  -4.7861328E+000 -1.2985938E+002 
2.1212500E+003  -3.2832031E+000 9.0175781E+001  -1.0420410E+001 1.5370313E+002  -1.2090820E+001 1.3323438E+002  -4.8354492E+000 -1.4407813E+002 
2.1356250E+003  -3.3315430E+000 8.4222656E+001  -1.0146973E+001 1.4545313E+002  -1.1916992E+001 1.2435547E+002  -4.8493652E+000 -1.5816406E+002 
2.1500000E+003  -3.3812256E+000 7.8257813E+001  -9.9174805E+000 1.3750781E+002  -1.1774902E+001 1.1592969E+002  -4.8266602E+000 -1.7201563E+002 
2.1643750E+003  -3.4317627E+000 7.2285156E+001  -9.7026367E+000 1.2975000E+002  -1.1627441E+001 1.0767188E+002  -4.7658691E+000 1.7450000E+002  
2.1787500E+003  -3.4820557E+000 6.6289063E+001  -9.5063477E+000 1.2200391E+002  -1.1489258E+001 9.9242188E+001  -4.6645508E+000 1.6147656E+002  
2.1931250E+003  -3.5316162E+000 6.0265625E+001  -9.3559570E+000 1.1418359E+002  -1.1417480E+001 9.0593750E+001  -4.5249023E+000 1.4904688E+002  
2.2075000E+003  -3.5787354E+000 5.4208984E+001  -9.2753906E+000 1.0645703E+002  -1.1449219E+001 8.2035156E+001  -4.3481445E+000 1.3732813E+002  
2.2218750E+003  -3.6241455E+000 4.8101563E+001  -9.2636719E+000 9.9109375E+001  -1.1568359E+001 7.4011719E+001  -4.1452637E+000 1.2639453E+002  
2.2362500E+003  -3.6700439E+000 4.1945313E+001  -9.2724609E+000 9.2324219E+001  -1.1707031E+001 6.6675781E+001  -3.9291992E+000 1.1631250E+002  
2.2506250E+003  -3.7149658E+000 3.5732422E+001  -9.2500000E+000 8.5957031E+001  -1.1805176E+001 5.9822266E+001  -3.7139893E+000 1.0706250E+002  
2.2650000E+003  -3.7612305E+000 2.9452148E+001  -9.1884766E+000 7.9652344E+001  -1.1852539E+001 5.3023438E+001  -3.5120850E+000 9.8605469E+001  
2.2793750E+003  -3.8095703E+000 2.3102539E+001  -9.1225586E+000 7.3167969E+001  -1.1892578E+001 4.6015625E+001  -3.3312988E+000 9.0843750E+001  
2.2937500E+003  -3.8610840E+000 1.6682617E+001  -9.1020508E+000 6.6601563E+001  -1.1975586E+001 3.8882813E+001  -3.1737061E+000 8.3687500E+001  
2.3081250E+003  -3.9149170E+000 1.0180176E+001  -9.1435547E+000 6.0312500E+001  -1.2120605E+001 3.1968750E+001  -3.0424805E+000 7.7031250E+001  
2.3225000E+003  -3.9746094E+000 3.5883789E+000  -9.2050781E+000 5.4609375E+001  -1.2288574E+001 2.5547852E+001  -2.9361572E+000 7.0808594E+001  
2.3368750E+003  -4.0385742E+000 -3.0803223E+000 -9.2216797E+000 4.9462891E+001  -1.2425781E+001 1.9589844E+001  -2.8536377E+000 6.4941406E+001  
2.3512500E+003  -4.1054688E+000 -9.8232422E+000 -9.1523438E+000 4.4507813E+001  -1.2501465E+001 1.3779297E+001  -2.7919922E+000 5.9359375E+001  
2.3656250E+003  -4.1767578E+000 -1.6640625E+001 -9.0141602E+000 3.9318359E+001  -1.2533203E+001 7.7932129E+000  -2.7502441E+000 5.4013672E+001  
2.3800000E+003  -4.2509766E+000 -2.3525391E+001 -8.8666992E+000 3.3707031E+001  -1.2568848E+001 1.5092163E+000  -2.7266846E+000 4.8863281E+001  
2.3943750E+003  -4.3278809E+000 -3.0462891E+001 -8.7651367E+000 2.7872070E+001  -1.2647461E+001 -4.8930664E+000 -2.7189941E+000 4.3880859E+001  
2.4087500E+003  -4.4072266E+000 -3.7447266E+001 -8.7192383E+000 2.2227539E+001  -1.2769531E+001 -1.1110352E+001 -2.7260742E+000 3.9027344E+001  
2.4231250E+003  -4.4897461E+000 -4.4486328E+001 -8.6831055E+000 1.7024414E+001  -1.2901367E+001 -1.6942383E+001 -2.7496338E+000 3.4281250E+001  
2.4375000E+003  -4.5754395E+000 -5.1556641E+001 -8.5976563E+000 1.2187500E+001  -1.2993652E+001 -2.2500000E+001 -2.7880859E+000 2.9634766E+001  
2.4518750E+003  -4.6665039E+000 -5.8679688E+001 -8.4409180E+000 7.3840332E+000  -1.3036133E+001 -2.8069336E+001 -2.8430176E+000 2.5040039E+001  
2.4662500E+003  -4.7597656E+000 -6.5832031E+001 -8.2314453E+000 2.2658691E+000  -1.3052734E+001 -3.3906250E+001 -2.9118652E+000 2.0509766E+001  
2.4806250E+003  -4.8554688E+000 -7.3027344E+001 -8.0268555E+000 -3.2354736E+000 -1.3088867E+001 -4.0009766E+001 -2.9984131E+000 1.6004883E+001  
2.4950000E+003  -4.9553223E+000 -8.0253906E+001 -7.8642578E+000 -8.8842773E+000 -1.3172363E+001 -4.6156250E+001 -3.0996094E+000 1.1534180E+001  
2.5093750E+003  -5.0571289E+000 -8.7507813E+001 -7.7348633E+000 -1.4352539E+001 -1.3289551E+001 -5.2072266E+001 -3.2192383E+000 7.0627441E+000  
2.5237500E+003  -5.1623535E+000 -9.4765625E+001 -7.5957031E+000 -1.9507813E+001 -1.3398438E+001 -5.7679688E+001 -3.3564453E+000 2.5762939E+000  
2.5381250E+003  -5.2673340E+000 -1.0201172E+002 -7.4018555E+000 -2.4519531E+001 -1.3469727E+001 -6.3185547E+001 -3.5147705E+000 -1.9267578E+000 
2.5525000E+003  -5.3740234E+000 -1.0925000E+002 -7.1489258E+000 -2.9700195E+001 -1.3508301E+001 -6.8843750E+001 -3.6933594E+000 -6.4545898E+000 
2.5668750E+003  -5.4824219E+000 -1.1646094E+002 -6.8686523E+000 -3.5296875E+001 -1.3554199E+001 -7.4746094E+001 -3.8929443E+000 -1.1020996E+001 
2.5812500E+003  -5.5937500E+000 -1.2362500E+002 -6.6110840E+000 -4.1300781E+001 -1.3641113E+001 -8.0757813E+001 -4.1164551E+000 -1.5611816E+001 
2.5956250E+003  -5.7099609E+000 -1.3075000E+002 -6.4055176E+000 -4.7464844E+001 -1.3768066E+001 -8.6613281E+001 -4.3654785E+000 -2.0244141E+001 
2.6100000E+003  -5.8305664E+000 -1.3782813E+002 -6.2409668E+000 -5.3482422E+001 -1.3903809E+001 -9.2171875E+001 -4.6430664E+000 -2.4915039E+001 
2.6243750E+003  -5.9570313E+000 -1.4483594E+002 -6.0776367E+000 -5.9248047E+001 -1.4013672E+001 -9.7507813E+001 -4.9511719E+000 -2.9628906E+001 
2.6387500E+003  -6.0893555E+000 -1.5178906E+002 -5.8825684E+000 -6.4902344E+001 -1.4090820E+001 -1.0284766E+002 -5.2963867E+000 -3.4384766E+001 
2.6531250E+003  -6.2265625E+000 -1.5870313E+002 -5.6472168E+000 -7.0683594E+001 -1.4156250E+001 -1.0832031E+002 -5.6801758E+000 -3.9193359E+001 
2.6675000E+003  -6.3703613E+000 -1.6553125E+002 -5.3972168E+000 -7.6761719E+001 -1.4237793E+001 -1.1391406E+002 -6.1057129E+000 -4.4056641E+001 
2.6818750E+003  -6.5180664E+000 -1.7228125E+002 -5.1655273E+000 -8.3117188E+001 -1.4347168E+001 -1.1944141E+002 -6.5781250E+000 -4.8998047E+001 
2.6962500E+003  -6.6723633E+000 -1.7893750E+002 -4.9692383E+000 -8.9589844E+001 -1.4466309E+001 -1.2476563E+002 -7.1008301E+000 -5.4044922E+001 
2.7106250E+003  -6.8344727E+000 1.7450781E+002  -4.8034668E+000 -9.6000000E+001 -1.4568359E+001 -1.2988281E+002 -7.6816406E+000 -5.9216797E+001 
2.7250000E+003  -7.0026855E+000 1.6807031E+002  -4.6425781E+000 -1.0229688E+002 -1.4640625E+001 -1.3492969E+002 -8.3247070E+000 -6.4535156E+001 
2.7393750E+003  -7.1787109E+000 1.6174219E+002  -4.4694824E+000 -1.0857813E+002 -1.4690430E+001 -1.4007031E+002 -9.0415039E+000 -7.0074219E+001 
2.7537500E+003  -7.3664551E+000 1.5555469E+002  -4.2836914E+000 -1.1497656E+002 -1.4740723E+001 -1.4531250E+002 -9.8422852E+000 -7.5906250E+001 
2.7681250E+003  -7.5661621E+000 1.4947656E+002  -4.1042480E+000 -1.2154688E+002 -1.4805176E+001 -1.5056250E+002 -1.0740234E+001 -8.2152344E+001 
2.7825000E+003  -7.7790527E+000 1.4352344E+002  -3.9512939E+000 -1.2823438E+002 -1.4875977E+001 -1.5567188E+002 -1.1741699E+001 -8.9082031E+001 
2.7968750E+003  -8.0087891E+000 1.3767969E+002  -3.8254395E+000 -1.3493750E+002 -1.4933105E+001 -1.6059375E+002 -1.2835449E+001 -9.7136719E+001 
2.8112500E+003  -8.2539063E+000 1.3196094E+002  -3.7180176E+000 -1.4155469E+002 -1.4956543E+001 -1.6544531E+002 -1.3945313E+001 -1.0670313E+002 
2.8256250E+003  -8.5131836E+000 1.2635156E+002  -3.6120605E+000 -1.4807813E+002 -1.4944336E+001 -1.7036719E+002 -1.4963379E+001 -1.1766016E+002 
2.8400000E+003  -8.7856445E+000 1.2088281E+002  -3.4995117E+000 -1.5458594E+002 -1.4915039E+001 -1.7548438E+002 -1.5834961E+001 -1.2950781E+002 
2.8543750E+003  -9.0717773E+000 1.1554688E+002  -3.3858643E+000 -1.6117969E+002 -1.4886719E+001 1.7926563E+002  -1.6561523E+001 -1.4188281E+002 
2.8687500E+003  -9.3710938E+000 1.1038281E+002  -3.2833252E+000 -1.6784375E+002 -1.4867676E+001 1.7396875E+002  -1.7154297E+001 -1.5454688E+002 
2.8831250E+003  -9.6816406E+000 1.0541016E+002  -3.1968994E+000 -1.7452344E+002 -1.4848633E+001 1.6872656E+002  -1.7623047E+001 -1.6739063E+002 
2.8975000E+003  -1.0006836E+001 1.0063672E+002  -3.1256104E+000 1.7881250E+002  -1.4809570E+001 1.6350781E+002  -1.7978516E+001 1.7968750E+002  
2.9118750E+003  -1.0347656E+001 9.6070313E+001  -3.0617676E+000 1.7221094E+002  -1.4745605E+001 1.5821094E+002  -1.8227539E+001 1.6672656E+002  
